
T07C0 000:065 SEGGER J-Link V6.10i Log File (0001ms, 0040ms total)
T07C0 000:065 DLL Compiled: Oct 25 2016 19:31:51 (0001ms, 0040ms total)
T07C0 000:065 Logging started @ 2018-09-25 17:21 (0001ms, 0040ms total)
T07C0 000:066 JLINK_SetWarnOutHandler(...) (0000ms, 0040ms total)
T07C0 000:066 JLINK_OpenEx(...)
Firmware: J-Link V9 compiled Apr 20 2018 16:47:26
Hardware: V9.30
S/N: 269307197
OEM: SEGGER-EDU
Feature(s): FlashBP, GDBWEBSRV Webserver running on local port 19080 (0023ms, 0063ms total)
T07C0 000:066   returns O.K. (0023ms, 0063ms total)
T07C0 000:089 JLINK_SetErrorOutHandler(...) (0000ms, 0063ms total)
T07C0 000:089 JLINK_ExecCommand("ProjectFile = "E:\淘宝资料\F4\1-参考例程\9-FAT32文件系统(保存ADC采集值)\USER\JLinkSettings.ini"", ...).   returns 0x00 (0235ms, 0298ms total)
T07C0 000:324 JLINK_ExecCommand("Device = STM32F407ZG", ...). Device "STM32F407ZG" selected.  returns 0x00 (0001ms, 0299ms total)
T07C0 000:325 JLINK_ExecCommand("DisableConnectionTimeout", ...).   returns 0x01 (0000ms, 0299ms total)
T07C0 000:325 JLINK_GetHardwareVersion()  returns 0x16B48 (0000ms, 0299ms total)
T07C0 000:325 JLINK_GetDLLVersion()  returns 61009 (0000ms, 0299ms total)
T07C0 000:325 JLINK_GetDLLVersion()  returns 61009 (0000ms, 0299ms total)
T07C0 000:325 JLINK_GetCompileDateTime() (0001ms, 0300ms total)
T07C0 000:326 JLINK_GetFirmwareString(...) (0000ms, 0300ms total)
T07C0 000:326 JLINK_GetHardwareVersion()  returns 0x16B48 (0000ms, 0300ms total)
T07C0 000:326 JLINK_TIF_Select(JLINKARM_TIF_JTAG)  returns 0x00 (0003ms, 0303ms total)
T07C0 000:329 JLINK_SetSpeed(5000) (0000ms, 0303ms total)
T07C0 000:329 JLINK_GetIdData(...) >0x2F8 JTAG>TotalIRLen = 9, IRPrint = 0x0011 >0x30 JTAG> >0x410 JTAG> >0x40 JTAG> >0x40 JTAG> >0x40 JTAG> >0x30 JTAG> >0x40 JTAG> >0x40 JTAG> >0x40 JTAG> >0x40 JTAG> >0x40 JTAG> >0x40 JTAG> >0x40 JTAG> >0x40 JTAG> >0x40 JTAG> >0x40 JTAG> >0x40 JTAG> >0x40 JTAG> >0x40 JTAG> >0x40 JTAG> >0x40 JTAG> >0x40 JTAG> >0x40 JTAG> >0x40 JTAG> >0x40 JTAG> >0x40 JTAG> >0x2F8 JTAG>TotalIRLen = 9, IRPrint = 0x0011 >0x30 JTAG> >0x410 JTAG> >0x70 JTAG> >0x50 JTAG> >0x40 JTAG>
 >0x50 JTAG>AP-IDR: 0x24770011, Type: AHB-APStart searching for Cortex-M ROM table with ROMTable[0] @ 0xE00FF000.ROMTable[1]: Cortex-M ROM table found. >0x80 JTAG> >0x40 JTAG> >0x30 JTAG> >0x40 JTAG> >0x40 JTAG> >0x30 JTAG> >0x40 JTAG> >0x50 JTAG>Found Cortex-M4 r0p1, Little endian. -- CPU_ReadMem(4 bytes @ 0xE000EDF0) -- CPU_WriteMem(4 bytes @ 0xE000EDF0) -- CPU_ReadMem(4 bytes @ 0xE0002000)FPUnit: 6 code (BP) slots and 2 literal slots -- CPU_ReadMem(4 bytes @ 0xE000EDFC)
 -- CPU_WriteMem(4 bytes @ 0xE000EDFC) -- CPU_ReadMem(4 bytes @ 0xE0001000) -- CPU_WriteMem(4 bytes @ 0xE0001000) -- CPU_ReadMem(4 bytes @ 0xE000ED88) -- CPU_WriteMem(4 bytes @ 0xE000ED88) -- CPU_ReadMem(4 bytes @ 0xE000ED88) -- CPU_WriteMem(4 bytes @ 0xE000ED88)CoreSight components:ROMTbl 0 @ E00FF000 -- CPU_ReadMem(16 bytes @ 0xE00FF000) -- CPU_ReadMem(16 bytes @ 0xE000EFF0) -- CPU_ReadMem(16 bytes @ 0xE000EFE0)ROMTbl 0 [0]: FFF0F000, CID: B105E00D, PID: 000BB00C SCS
 -- CPU_ReadMem(16 bytes @ 0xE0001FF0) -- CPU_ReadMem(16 bytes @ 0xE0001FE0)ROMTbl 0 [1]: FFF02000, CID: B105E00D, PID: 003BB002 DWT -- CPU_ReadMem(16 bytes @ 0xE0002FF0) -- CPU_ReadMem(16 bytes @ 0xE0002FE0)ROMTbl 0 [2]: FFF03000, CID: B105E00D, PID: 002BB003 FPB -- CPU_ReadMem(16 bytes @ 0xE0000FF0) -- CPU_ReadMem(16 bytes @ 0xE0000FE0)ROMTbl 0 [3]: FFF01000, CID: B105E00D, PID: 003BB001 ITM -- CPU_ReadMem(16 bytes @ 0xE00FF010) -- CPU_ReadMem(16 bytes @ 0xE0040FF0)
 -- CPU_ReadMem(16 bytes @ 0xE0040FE0)ROMTbl 0 [4]: FFF41000, CID: B105900D, PID: 000BB9A1 TPIU -- CPU_ReadMem(16 bytes @ 0xE0041FF0) -- CPU_ReadMem(16 bytes @ 0xE0041FE0)ROMTbl 0 [5]: FFF42000, CID: B105900D, PID: 000BB925 ETM ScanLen=9 NumDevices=2 aId[0]=0x4BA00477 aIrRead[0]=0 aScanLen[0]=0 aScanRead[0]=0 (0043ms, 0346ms total)
T07C0 000:372 JLINK_JTAG_GetDeviceID(DeviceIndex = 0)  returns 0x4BA00477 (0000ms, 0346ms total)
T07C0 000:372 JLINK_JTAG_GetDeviceInfo(DeviceIndex = 0)  returns 0x00 (0000ms, 0346ms total)
T07C0 000:372 JLINK_JTAG_GetDeviceID(DeviceIndex = 1)  returns 0x6413041 (0000ms, 0346ms total)
T07C0 000:372 JLINK_JTAG_GetDeviceInfo(DeviceIndex = 1)  returns 0x00 (0000ms, 0346ms total)
T07C0 000:372 JLINK_GetDLLVersion()  returns 61009 (0000ms, 0346ms total)
T07C0 000:372 JLINK_CORE_GetFound()  returns 0xE0000FF (0000ms, 0346ms total)
T07C0 000:372 JLINK_GetDebugInfo(0x100) -- Value=0xE00FF003  returns 0x00 (0001ms, 0347ms total)
T07C0 000:373 JLINK_GetDebugInfo(0x100) -- Value=0xE00FF003  returns 0x00 (0000ms, 0347ms total)
T07C0 000:373 JLINK_GetDebugInfo(0x101) -- Value=0xE0041000  returns 0x00 (0000ms, 0347ms total)
T07C0 000:373 JLINK_GetDebugInfo(0x102) -- Value=0x00000000  returns 0x00 (0000ms, 0347ms total)
T07C0 000:373 JLINK_GetDebugInfo(0x103) -- Value=0xE0040000  returns 0x00 (0000ms, 0347ms total)
T07C0 000:373 JLINK_GetDebugInfo(0x104) -- Value=0xE0000000  returns 0x00 (0000ms, 0347ms total)
T07C0 000:373 JLINK_GetDebugInfo(0x105) -- Value=0xE0001000  returns 0x00 (0000ms, 0347ms total)
T07C0 000:373 JLINK_GetDebugInfo(0x106) -- Value=0xE0002000  returns 0x00 (0000ms, 0347ms total)
T07C0 000:373 JLINK_GetDebugInfo(0x107) -- Value=0xE000E000  returns 0x00 (0000ms, 0347ms total)
T07C0 000:373 JLINK_GetDebugInfo(0x10C) -- Value=0xE000EDF0  returns 0x00 (0000ms, 0347ms total)
T07C0 000:373 JLINK_ReadMemU32(0xE000EF40, 0x0001 Items, ...) -- CPU is running -- CPU_ReadMem(4 bytes @ 0xE000EF40) - Data: 21 00 11 10  returns 0x01 (0000ms, 0347ms total)
T07C0 000:373 JLINK_ReadMemU32(0xE000EF44, 0x0001 Items, ...) -- CPU is running -- CPU_ReadMem(4 bytes @ 0xE000EF44) - Data: 11 00 00 11  returns 0x01 (0001ms, 0348ms total)
T07C0 000:374 JLINK_ReadMemU32(0xE000ED00, 0x0001 Items, ...) -- CPU is running -- CPU_ReadMem(4 bytes @ 0xE000ED00) - Data: 41 C2 0F 41  returns 0x01 (0001ms, 0349ms total)
T07C0 000:375 JLINK_SetResetType(JLINKARM_RESET_TYPE_NORMAL)  returns JLINKARM_RESET_TYPE_NORMAL (0000ms, 0349ms total)
T07C0 000:375 JLINK_Reset() -- CPU is running -- CPU_WriteMem(4 bytes @ 0xE000EDF0) -- CPU is running -- CPU_WriteMem(4 bytes @ 0xE000EDFC) -- CPU is running -- CPU_WriteMem(4 bytes @ 0xE000ED0C) -- CPU is running -- CPU_ReadMem(4 bytes @ 0xE000EDF0) -- CPU is running -- CPU_ReadMem(4 bytes @ 0xE000EDF0) -- CPU is running -- CPU_WriteMem(4 bytes @ 0xE000EDF0) -- CPU is running -- CPU_WriteMem(4 bytes @ 0xE000EDFC) -- CPU is running -- CPU_ReadMem(4 bytes @ 0xE000EDF0) >0x80 JTAG> >0x40 JTAG> >0x30 JTAG>
 >0x40 JTAG> >0x50 JTAG> >0x40 JTAG> -- CPU_WriteMem(4 bytes @ 0xE000EDFC) -- CPU_WriteMem(4 bytes @ 0xE0001028) -- CPU_WriteMem(4 bytes @ 0xE0001038) -- CPU_WriteMem(4 bytes @ 0xE0001048) -- CPU_WriteMem(4 bytes @ 0xE0001058) -- CPU_WriteMem(4 bytes @ 0xE0002000) -- CPU_ReadMem(4 bytes @ 0xE000EDFC) -- CPU_ReadMem(4 bytes @ 0xE0001000) (0028ms, 0377ms total)
T07C0 000:403 JLINK_ReadReg(R15 (PC))  returns 0x08002334 (0000ms, 0377ms total)
T07C0 000:403 JLINK_ReadReg(XPSR)  returns 0x01000000 (0000ms, 0377ms total)
T07C0 000:403 JLINK_Halt()  returns 0x00 (0000ms, 0377ms total)
T07C0 000:403 JLINK_IsHalted()  returns TRUE (0000ms, 0377ms total)
T07C0 000:403 JLINK_ReadMemU32(0xE000EDF0, 0x0001 Items, ...) -- CPU_ReadMem(4 bytes @ 0xE000EDF0) - Data: 03 00 03 00  returns 0x01 (0001ms, 0378ms total)
T07C0 000:404 JLINK_WriteU32(0xE000EDF0, 0xA05F0003) -- CPU_WriteMem(4 bytes @ 0xE000EDF0)  returns 0x00 (0001ms, 0379ms total)
T07C0 000:405 JLINK_WriteU32(0xE000EDFC, 0x01000000) -- CPU_WriteMem(4 bytes @ 0xE000EDFC)  returns 0x00 (0000ms, 0379ms total)
T07C0 000:405 JLINK_GetHWStatus(...)  returns 0x00 (0001ms, 0380ms total)
T07C0 000:406 JLINK_GetNumBPUnits(Type = 0xFFFFFF00)  returns 0x06 (0000ms, 0380ms total)
T07C0 000:406 JLINK_GetNumBPUnits(Type = 0xF0)  returns 0x2000 (0000ms, 0380ms total)
T07C0 000:406 JLINK_GetNumWPUnits()  returns 0x04 (0000ms, 0380ms total)
T07C0 000:406 JLINK_GetSpeed()  returns 0x1388 (0000ms, 0380ms total)
T07C0 000:406 JLINK_ReadMemU32(0xE000E004, 0x0001 Items, ...) -- CPU_ReadMem(4 bytes @ 0xE000E004) - Data: 02 00 00 00  returns 0x01 (0000ms, 0380ms total)
T07C0 000:406 JLINK_ReadMemU32(0xE000E004, 0x0001 Items, ...) -- CPU_ReadMem(4 bytes @ 0xE000E004) - Data: 02 00 00 00  returns 0x01 (0001ms, 0381ms total)
T07C0 000:407 JLINK_WriteMem(0xE0001000, 0x001C Bytes, ...) - Data: 01 00 00 00 00 00 00 00 00 00 00 00 00 00 00 00 ... -- CPU_WriteMem(28 bytes @ 0xE0001000)  returns 0x1C (0001ms, 0382ms total)
T07C0 000:408 JLINK_ReadMem (0xE0001000, 0x001C Bytes, ...) -- CPU_ReadMem(28 bytes @ 0xE0001000) - Data: 01 00 00 40 00 00 00 00 00 00 00 00 00 00 00 00 ...  returns 0x00 (0001ms, 0383ms total)
T07C0 000:409 JLINK_ReadReg(R15 (PC))  returns 0x08002334 (0000ms, 0383ms total)
T07C0 000:409 JLINK_ReadReg(XPSR)  returns 0x01000000 (0000ms, 0383ms total)
T07C0 000:552 JLINK_SetResetType(JLINKARM_RESET_TYPE_NORMAL)  returns JLINKARM_RESET_TYPE_NORMAL (0000ms, 0383ms total)
T07C0 000:552 JLINK_Reset() -- CPU_WriteMem(4 bytes @ 0xE000EDF0) -- CPU_WriteMem(4 bytes @ 0xE000EDFC) -- CPU_WriteMem(4 bytes @ 0xE000ED0C) -- CPU_ReadMem(4 bytes @ 0xE000EDF0) -- CPU_ReadMem(4 bytes @ 0xE000EDF0) -- CPU_WriteMem(4 bytes @ 0xE000EDF0) -- CPU_WriteMem(4 bytes @ 0xE000EDFC) -- CPU is running -- CPU_ReadMem(4 bytes @ 0xE000EDF0) >0x80 JTAG> >0x40 JTAG> >0x30 JTAG> >0x40 JTAG> >0x50 JTAG> >0x40 JTAG> -- CPU_WriteMem(4 bytes @ 0xE000EDFC) -- CPU_WriteMem(4 bytes @ 0xE0001028)
 -- CPU_WriteMem(4 bytes @ 0xE0001038) -- CPU_WriteMem(4 bytes @ 0xE0001048) -- CPU_WriteMem(4 bytes @ 0xE0001058) -- CPU_WriteMem(4 bytes @ 0xE0002000) -- CPU_ReadMem(4 bytes @ 0xE000EDFC) -- CPU_ReadMem(4 bytes @ 0xE0001000) (0030ms, 0413ms total)
T07C0 000:583 JLINK_ReadReg(R15 (PC))  returns 0x08002334 (0000ms, 0413ms total)
T07C0 000:583 JLINK_ReadReg(XPSR)  returns 0x01000000 (0000ms, 0413ms total)
T07C0 000:584 JLINK_ReadMem (0x08002334, 0x003C Bytes, ...) -- CPU_ReadMem(128 bytes @ 0x08002300) -- Updating C cache (128 bytes @ 0x08002300) -- Read from C cache (60 bytes @ 0x08002334) - Data: 09 48 80 47 09 48 00 47 FE E7 FE E7 FE E7 FE E7 ...  returns 0x00 (0002ms, 0415ms total)
T0CB4 002:280 JLINK_SetBPEx(Addr = 0x08000240, Type = 0xFFFFFFF2)  returns 0x00000001 (0000ms, 0415ms total)
T0CB4 002:280 JLINK_Go() -- CPU_ReadMem(4 bytes @ 0xE0001000) -- CPU_WriteMem(4 bytes @ 0xE0002008) -- CPU_WriteMem(4 bytes @ 0xE000200C) -- CPU_WriteMem(4 bytes @ 0xE0002010) -- CPU_WriteMem(4 bytes @ 0xE0002014) -- CPU_WriteMem(4 bytes @ 0xE0002018) -- CPU_WriteMem(4 bytes @ 0xE000201C) -- CPU_WriteMem(4 bytes @ 0xE0001004) (0004ms, 0419ms total)
T0CB4 002:384 JLINK_IsHalted()  returns TRUE (0002ms, 0421ms total)
T0CB4 002:386 JLINK_Halt()  returns 0x00 (0000ms, 0419ms total)
T0CB4 002:386 JLINK_IsHalted()  returns TRUE (0000ms, 0419ms total)
T0CB4 002:386 JLINK_IsHalted()  returns TRUE (0000ms, 0419ms total)
T0CB4 002:386 JLINK_IsHalted()  returns TRUE (0000ms, 0419ms total)
T0CB4 002:386 JLINK_ReadReg(R15 (PC))  returns 0x08000240 (0000ms, 0419ms total)
T0CB4 002:386 JLINK_ReadReg(XPSR)  returns 0x21000000 (0000ms, 0419ms total)
T0CB4 002:386 JLINK_ClrBPEx(BPHandle = 0x00000001)  returns 0x00 (0000ms, 0419ms total)
T0CB4 002:386 JLINK_ReadMemU32(0xE000ED30, 0x0001 Items, ...) -- CPU_ReadMem(4 bytes @ 0xE000ED30) - Data: 02 00 00 00  returns 0x01 (0001ms, 0420ms total)
T0CB4 002:387 JLINK_ReadMemU32(0xE0001028, 0x0001 Items, ...) -- CPU_ReadMem(4 bytes @ 0xE0001028) - Data: 00 00 00 00  returns 0x01 (0001ms, 0421ms total)
T0CB4 002:388 JLINK_ReadMemU32(0xE0001038, 0x0001 Items, ...) -- CPU_ReadMem(4 bytes @ 0xE0001038) - Data: 00 02 00 00  returns 0x01 (0000ms, 0421ms total)
T0CB4 002:388 JLINK_ReadMemU32(0xE0001048, 0x0001 Items, ...) -- CPU_ReadMem(4 bytes @ 0xE0001048) - Data: 00 00 00 00  returns 0x01 (0001ms, 0422ms total)
T0CB4 002:389 JLINK_ReadMemU32(0xE0001058, 0x0001 Items, ...) -- CPU_ReadMem(4 bytes @ 0xE0001058) - Data: 00 00 00 00  returns 0x01 (0001ms, 0423ms total)
T0CB4 002:390 JLINK_ReadReg(R0)  returns 0x200071C0 (0000ms, 0423ms total)
T0CB4 002:390 JLINK_ReadReg(R1)  returns 0x200073C0 (0000ms, 0423ms total)
T0CB4 002:390 JLINK_ReadReg(R2)  returns 0x200073C0 (0000ms, 0423ms total)
T0CB4 002:390 JLINK_ReadReg(R3)  returns 0x200073C0 (0000ms, 0423ms total)
T0CB4 002:390 JLINK_ReadReg(R4)  returns 0x00000000 (0000ms, 0423ms total)
T0CB4 002:390 JLINK_ReadReg(R5)  returns 0x2000715C (0000ms, 0423ms total)
T0CB4 002:390 JLINK_ReadReg(R6)  returns 0x00000000 (0000ms, 0423ms total)
T0CB4 002:390 JLINK_ReadReg(R7)  returns 0x00000000 (0000ms, 0423ms total)
T0CB4 002:390 JLINK_ReadReg(R8)  returns 0x00000000 (0000ms, 0423ms total)
T0CB4 002:390 JLINK_ReadReg(R9)  returns 0x00000000 (0000ms, 0423ms total)
T0CB4 002:390 JLINK_ReadReg(R10)  returns 0x08032578 (0000ms, 0423ms total)
T0CB4 002:390 JLINK_ReadReg(R11)  returns 0x00000000 (0000ms, 0423ms total)
T0CB4 002:390 JLINK_ReadReg(R12)  returns 0x2000719C (0000ms, 0423ms total)
T0CB4 002:390 JLINK_ReadReg(R13 (SP))  returns 0x200077C0 (0000ms, 0423ms total)
T0CB4 002:390 JLINK_ReadReg(R14)  returns 0x08000221 (0000ms, 0423ms total)
T0CB4 002:390 JLINK_ReadReg(R15 (PC))  returns 0x08000240 (0000ms, 0423ms total)
T0CB4 002:390 JLINK_ReadReg(XPSR)  returns 0x21000000 (0000ms, 0423ms total)
T0CB4 002:390 JLINK_ReadReg(MSP)  returns 0x200077C0 (0000ms, 0423ms total)
T0CB4 002:391 JLINK_ReadReg(PSP)  returns 0x00000000 (0000ms, 0423ms total)
T0CB4 002:391 JLINK_ReadReg(CFBP)  returns 0x04000000 (0000ms, 0423ms total)
T0CB4 002:391 JLINK_ReadReg(FPSCR)  returns 0x03000000 (0003ms, 0426ms total)
T0CB4 002:394 JLINK_ReadReg(FPS0)  returns 0x00000000 (0000ms, 0426ms total)
T0CB4 002:394 JLINK_ReadReg(FPS1)  returns 0x00000000 (0000ms, 0426ms total)
T0CB4 002:394 JLINK_ReadReg(FPS2)  returns 0x00000000 (0000ms, 0426ms total)
T0CB4 002:394 JLINK_ReadReg(FPS3)  returns 0x00000000 (0000ms, 0426ms total)
T0CB4 002:394 JLINK_ReadReg(FPS4)  returns 0x00000000 (0000ms, 0426ms total)
T0CB4 002:394 JLINK_ReadReg(FPS5)  returns 0x00000000 (0000ms, 0426ms total)
T0CB4 002:394 JLINK_ReadReg(FPS6)  returns 0x00000000 (0000ms, 0426ms total)
T0CB4 002:394 JLINK_ReadReg(FPS7)  returns 0x00000000 (0000ms, 0426ms total)
T0CB4 002:394 JLINK_ReadReg(FPS8)  returns 0x00000000 (0000ms, 0426ms total)
T0CB4 002:394 JLINK_ReadReg(FPS9)  returns 0x00000000 (0000ms, 0426ms total)
T0CB4 002:394 JLINK_ReadReg(FPS10)  returns 0x00000000 (0000ms, 0426ms total)
T0CB4 002:394 JLINK_ReadReg(FPS11)  returns 0x00000000 (0000ms, 0426ms total)
T0CB4 002:394 JLINK_ReadReg(FPS12)  returns 0x00000000 (0000ms, 0426ms total)
T0CB4 002:394 JLINK_ReadReg(FPS13)  returns 0x00000000 (0000ms, 0426ms total)
T0CB4 002:394 JLINK_ReadReg(FPS14)  returns 0x00000000 (0000ms, 0426ms total)
T0CB4 002:394 JLINK_ReadReg(FPS15)  returns 0x00000000 (0000ms, 0426ms total)
T0CB4 002:394 JLINK_ReadReg(FPS16)  returns 0x00000000 (0000ms, 0426ms total)
T0CB4 002:394 JLINK_ReadReg(FPS17)  returns 0x00000000 (0000ms, 0426ms total)
T0CB4 002:394 JLINK_ReadReg(FPS18)  returns 0x00000000 (0000ms, 0426ms total)
T0CB4 002:394 JLINK_ReadReg(FPS19)  returns 0x00000000 (0000ms, 0426ms total)
T0CB4 002:394 JLINK_ReadReg(FPS20)  returns 0x00000000 (0000ms, 0426ms total)
T0CB4 002:394 JLINK_ReadReg(FPS21)  returns 0x00000000 (0000ms, 0426ms total)
T0CB4 002:394 JLINK_ReadReg(FPS22)  returns 0x00000000 (0000ms, 0426ms total)
T0CB4 002:394 JLINK_ReadReg(FPS23)  returns 0x00000000 (0000ms, 0426ms total)
T0CB4 002:394 JLINK_ReadReg(FPS24)  returns 0x00000000 (0000ms, 0426ms total)
T0CB4 002:394 JLINK_ReadReg(FPS25)  returns 0x00000000 (0000ms, 0426ms total)
T0CB4 002:394 JLINK_ReadReg(FPS26)  returns 0x00000000 (0001ms, 0427ms total)
T0CB4 002:395 JLINK_ReadReg(FPS27)  returns 0x00000000 (0000ms, 0427ms total)
T0CB4 002:395 JLINK_ReadReg(FPS28)  returns 0x00000000 (0000ms, 0427ms total)
T0CB4 002:395 JLINK_ReadReg(FPS29)  returns 0x00000000 (0000ms, 0427ms total)
T0CB4 002:395 JLINK_ReadReg(FPS30)  returns 0x00000000 (0000ms, 0427ms total)
T0CB4 002:395 JLINK_ReadReg(FPS31)  returns 0x00000000 (0000ms, 0427ms total)
T07C0 002:397 JLINK_ReadMem (0x00000000, 0x0004 Bytes, ...) -- CPU_ReadMem(4 bytes @ 0x00000004) -- CPU_ReadMem(64 bytes @ 0x08000000) -- Updating C cache (64 bytes @ 0x08000000) -- Read from C cache (4 bytes @ 0x08000000) - Data: C0 77 00 20  returns 0x00 (0002ms, 0429ms total)
T07C0 002:399 JLINK_ReadMem (0x200076F8, 0x0020 Bytes, ...) -- CPU_ReadMem(128 bytes @ 0x200076C0) -- Updating C cache (128 bytes @ 0x200076C0) -- Read from C cache (32 bytes @ 0x200076F8) - Data: 00 00 00 00 00 00 00 00 00 00 00 00 00 00 00 00 ...  returns 0x00 (0001ms, 0430ms total)
T07C0 002:400 JLINK_ReadMem (0x200076E4, 0x0014 Bytes, ...) -- Read from C cache (20 bytes @ 0x200076E4) - Data: 00 00 00 00 00 00 00 00 00 00 00 00 00 00 00 00 ...  returns 0x00 (0000ms, 0430ms total)
T07C0 002:406 JLINK_ReadMemU32(0xE0001004, 0x0001 Items, ...) -- CPU_ReadMem(4 bytes @ 0xE0001004) - Data: DB 64 00 00  returns 0x01 (0001ms, 0431ms total)
T0CB4 008:855 JLINK_SetBPEx(Addr = 0x08000290, Type = 0xFFFFFFF2)  returns 0x00000002 (0000ms, 0431ms total)
T0CB4 008:855 JLINK_Go() -- CPU_ReadMem(4 bytes @ 0xE0001000) -- CPU_WriteMem(4 bytes @ 0xE0002008) (0003ms, 0434ms total)
T0CB4 008:958 JLINK_IsHalted()  returns TRUE (0003ms, 0437ms total)
T0CB4 008:961 JLINK_Halt()  returns 0x00 (0000ms, 0434ms total)
T0CB4 008:961 JLINK_IsHalted()  returns TRUE (0000ms, 0434ms total)
T0CB4 008:961 JLINK_IsHalted()  returns TRUE (0000ms, 0434ms total)
T0CB4 008:961 JLINK_IsHalted()  returns TRUE (0000ms, 0434ms total)
T0CB4 008:961 JLINK_ReadReg(R15 (PC))  returns 0x08000290 (0000ms, 0434ms total)
T0CB4 008:961 JLINK_ReadReg(XPSR)  returns 0x61000000 (0000ms, 0434ms total)
T0CB4 008:961 JLINK_ClrBPEx(BPHandle = 0x00000002)  returns 0x00 (0000ms, 0434ms total)
T0CB4 008:961 JLINK_ReadMemU32(0xE000ED30, 0x0001 Items, ...) -- CPU_ReadMem(4 bytes @ 0xE000ED30) - Data: 02 00 00 00  returns 0x01 (0001ms, 0435ms total)
T0CB4 008:962 JLINK_ReadMemU32(0xE0001028, 0x0001 Items, ...) -- CPU_ReadMem(4 bytes @ 0xE0001028) - Data: 00 00 00 00  returns 0x01 (0001ms, 0436ms total)
T0CB4 008:963 JLINK_ReadMemU32(0xE0001038, 0x0001 Items, ...) -- CPU_ReadMem(4 bytes @ 0xE0001038) - Data: 00 02 00 00  returns 0x01 (0001ms, 0437ms total)
T0CB4 008:964 JLINK_ReadMemU32(0xE0001048, 0x0001 Items, ...) -- CPU_ReadMem(4 bytes @ 0xE0001048) - Data: 00 00 00 00  returns 0x01 (0001ms, 0438ms total)
T0CB4 008:965 JLINK_ReadMemU32(0xE0001058, 0x0001 Items, ...) -- CPU_ReadMem(4 bytes @ 0xE0001058) - Data: 00 00 00 00  returns 0x01 (0001ms, 0439ms total)
T0CB4 008:966 JLINK_ReadReg(R0)  returns 0x000000BC (0000ms, 0439ms total)
T0CB4 008:966 JLINK_ReadReg(R1)  returns 0x0000AA55 (0000ms, 0439ms total)
T0CB4 008:966 JLINK_ReadReg(R2)  returns 0x00000001 (0000ms, 0439ms total)
T0CB4 008:966 JLINK_ReadReg(R3)  returns 0x00000000 (0000ms, 0439ms total)
T0CB4 008:966 JLINK_ReadReg(R4)  returns 0x000000BC (0000ms, 0439ms total)
T0CB4 008:966 JLINK_ReadReg(R5)  returns 0x2000715C (0000ms, 0439ms total)
T0CB4 008:966 JLINK_ReadReg(R6)  returns 0x00000000 (0000ms, 0439ms total)
T0CB4 008:966 JLINK_ReadReg(R7)  returns 0x00000000 (0000ms, 0439ms total)
T0CB4 008:966 JLINK_ReadReg(R8)  returns 0x00000000 (0000ms, 0439ms total)
T0CB4 008:966 JLINK_ReadReg(R9)  returns 0x00000000 (0000ms, 0439ms total)
T0CB4 008:966 JLINK_ReadReg(R10)  returns 0x08032578 (0000ms, 0439ms total)
T0CB4 008:966 JLINK_ReadReg(R11)  returns 0x00000000 (0000ms, 0439ms total)
T0CB4 008:966 JLINK_ReadReg(R12)  returns 0x00000001 (0000ms, 0439ms total)
T0CB4 008:966 JLINK_ReadReg(R13 (SP))  returns 0x200076E0 (0000ms, 0439ms total)
T0CB4 008:966 JLINK_ReadReg(R14)  returns 0x08001409 (0000ms, 0439ms total)
T0CB4 008:966 JLINK_ReadReg(R15 (PC))  returns 0x08000290 (0000ms, 0439ms total)
T0CB4 008:966 JLINK_ReadReg(XPSR)  returns 0x61000000 (0000ms, 0439ms total)
T0CB4 008:966 JLINK_ReadReg(MSP)  returns 0x200076E0 (0000ms, 0439ms total)
T0CB4 008:966 JLINK_ReadReg(PSP)  returns 0x00000000 (0000ms, 0439ms total)
T0CB4 008:967 JLINK_ReadReg(CFBP)  returns 0x04000000 (0000ms, 0440ms total)
T0CB4 008:967 JLINK_ReadReg(FPSCR)  returns 0x03000000 (0003ms, 0443ms total)
T0CB4 008:970 JLINK_ReadReg(FPS0)  returns 0x00000000 (0000ms, 0443ms total)
T0CB4 008:970 JLINK_ReadReg(FPS1)  returns 0x00000000 (0000ms, 0443ms total)
T0CB4 008:970 JLINK_ReadReg(FPS2)  returns 0x00000000 (0000ms, 0443ms total)
T0CB4 008:970 JLINK_ReadReg(FPS3)  returns 0x00000000 (0000ms, 0443ms total)
T0CB4 008:970 JLINK_ReadReg(FPS4)  returns 0x00000000 (0000ms, 0443ms total)
T0CB4 008:970 JLINK_ReadReg(FPS5)  returns 0x00000000 (0000ms, 0443ms total)
T0CB4 008:970 JLINK_ReadReg(FPS6)  returns 0x00000000 (0000ms, 0443ms total)
T0CB4 008:970 JLINK_ReadReg(FPS7)  returns 0x00000000 (0000ms, 0443ms total)
T0CB4 008:970 JLINK_ReadReg(FPS8)  returns 0x00000000 (0000ms, 0443ms total)
T0CB4 008:970 JLINK_ReadReg(FPS9)  returns 0x00000000 (0000ms, 0443ms total)
T0CB4 008:970 JLINK_ReadReg(FPS10)  returns 0x00000000 (0000ms, 0443ms total)
T0CB4 008:970 JLINK_ReadReg(FPS11)  returns 0x00000000 (0000ms, 0443ms total)
T0CB4 008:970 JLINK_ReadReg(FPS12)  returns 0x00000000 (0000ms, 0443ms total)
T0CB4 008:970 JLINK_ReadReg(FPS13)  returns 0x00000000 (0000ms, 0443ms total)
T0CB4 008:970 JLINK_ReadReg(FPS14)  returns 0x00000000 (0000ms, 0443ms total)
T0CB4 008:970 JLINK_ReadReg(FPS15)  returns 0x00000000 (0000ms, 0443ms total)
T0CB4 008:970 JLINK_ReadReg(FPS16)  returns 0x00000000 (0000ms, 0443ms total)
T0CB4 008:970 JLINK_ReadReg(FPS17)  returns 0x00000000 (0001ms, 0444ms total)
T0CB4 008:971 JLINK_ReadReg(FPS18)  returns 0x00000000 (0000ms, 0444ms total)
T0CB4 008:971 JLINK_ReadReg(FPS19)  returns 0x00000000 (0000ms, 0444ms total)
T0CB4 008:971 JLINK_ReadReg(FPS20)  returns 0x00000000 (0000ms, 0444ms total)
T0CB4 008:971 JLINK_ReadReg(FPS21)  returns 0x00000000 (0000ms, 0444ms total)
T0CB4 008:971 JLINK_ReadReg(FPS22)  returns 0x00000000 (0000ms, 0444ms total)
T0CB4 008:971 JLINK_ReadReg(FPS23)  returns 0x00000000 (0000ms, 0444ms total)
T0CB4 008:971 JLINK_ReadReg(FPS24)  returns 0x00000000 (0000ms, 0444ms total)
T0CB4 008:971 JLINK_ReadReg(FPS25)  returns 0x00000000 (0000ms, 0444ms total)
T0CB4 008:971 JLINK_ReadReg(FPS26)  returns 0x00000000 (0000ms, 0444ms total)
T0CB4 008:971 JLINK_ReadReg(FPS27)  returns 0x00000000 (0000ms, 0444ms total)
T0CB4 008:971 JLINK_ReadReg(FPS28)  returns 0x00000000 (0000ms, 0444ms total)
T0CB4 008:971 JLINK_ReadReg(FPS29)  returns 0x00000000 (0000ms, 0444ms total)
T0CB4 008:971 JLINK_ReadReg(FPS30)  returns 0x00000000 (0000ms, 0444ms total)
T0CB4 008:971 JLINK_ReadReg(FPS31)  returns 0x00000000 (0000ms, 0444ms total)
T07C0 008:971 JLINK_ReadMem (0x00000000, 0x0004 Bytes, ...) -- CPU_ReadMem(4 bytes @ 0x00000004) -- CPU_ReadMem(64 bytes @ 0x08000000) -- Updating C cache (64 bytes @ 0x08000000) -- Read from C cache (4 bytes @ 0x08000000) - Data: C0 77 00 20  returns 0x00 (0002ms, 0446ms total)
T07C0 008:975 JLINK_ReadMem (0x200076F8, 0x0020 Bytes, ...) -- CPU_ReadMem(128 bytes @ 0x200076C0) -- Updating C cache (128 bytes @ 0x200076C0) -- Read from C cache (32 bytes @ 0x200076F8) - Data: 00 01 02 03 04 05 06 07 08 09 0A 0B 0C 0D 0E 0F ...  returns 0x00 (0002ms, 0448ms total)
T07C0 008:977 JLINK_ReadMem (0x200076E4, 0x0014 Bytes, ...) -- Read from C cache (20 bytes @ 0x200076E4) - Data: 00 00 00 00 00 00 00 00 00 00 00 00 00 00 00 00 ...  returns 0x00 (0000ms, 0448ms total)
T07C0 008:977 JLINK_ReadMemU32(0xE0001004, 0x0001 Items, ...) -- CPU_ReadMem(4 bytes @ 0xE0001004) - Data: 46 D3 31 00  returns 0x01 (0001ms, 0449ms total)
T07C0 008:979 JLINK_ReadMem (0x08000290, 0x003C Bytes, ...) -- CPU_ReadMem(128 bytes @ 0x08000280) -- Updating C cache (128 bytes @ 0x08000280) -- Read from C cache (60 bytes @ 0x08000290) - Data: 1C 48 C1 68 05 F0 46 FC 06 A8 07 F0 E5 F8 05 46 ...  returns 0x00 (0002ms, 0451ms total)
T07C0 009:726 JLINK_ReadMem (0x200077B4, 0x0001 Bytes, ...) -- CPU_ReadMem(64 bytes @ 0x20007780) -- Updating C cache (64 bytes @ 0x20007780) -- Read from C cache (1 bytes @ 0x200077B4) - Data: C0  returns 0x00 (0001ms, 0452ms total)
T07C0 010:219 JLINK_ReadMem (0x08000284, 0x003C Bytes, ...) -- Read from C cache (60 bytes @ 0x08000284) - Data: 06 A8 04 55 60 1C C4 B2 BC 2C F9 DB 1C 48 C1 68 ...  returns 0x00 (0000ms, 0452ms total)
T07C0 011:526 JLINK_ReadMem (0x20007718, 0x0001 Bytes, ...) -- Read from C cache (1 bytes @ 0x20007718) - Data: 20  returns 0x00 (0000ms, 0452ms total)
T07C0 011:526 JLINK_ReadMem (0x20007719, 0x0001 Bytes, ...) -- Read from C cache (1 bytes @ 0x20007719) - Data: 21  returns 0x00 (0000ms, 0452ms total)
T07C0 011:526 JLINK_ReadMem (0x2000771A, 0x0001 Bytes, ...) -- Read from C cache (1 bytes @ 0x2000771A) - Data: 22  returns 0x00 (0000ms, 0452ms total)
T07C0 011:526 JLINK_ReadMem (0x2000771B, 0x0001 Bytes, ...) -- Read from C cache (1 bytes @ 0x2000771B) - Data: 23  returns 0x00 (0000ms, 0452ms total)
T07C0 011:526 JLINK_ReadMem (0x2000771C, 0x0001 Bytes, ...) -- Read from C cache (1 bytes @ 0x2000771C) - Data: 24  returns 0x00 (0000ms, 0452ms total)
T07C0 011:526 JLINK_ReadMem (0x2000771D, 0x0001 Bytes, ...) -- Read from C cache (1 bytes @ 0x2000771D) - Data: 25  returns 0x00 (0000ms, 0452ms total)
T07C0 011:526 JLINK_ReadMem (0x2000771E, 0x0001 Bytes, ...) -- Read from C cache (1 bytes @ 0x2000771E) - Data: 26  returns 0x00 (0000ms, 0452ms total)
T07C0 011:527 JLINK_ReadMem (0x2000771F, 0x0001 Bytes, ...) -- Read from C cache (1 bytes @ 0x2000771F) - Data: 27  returns 0x00 (0000ms, 0452ms total)
T07C0 011:527 JLINK_ReadMem (0x20007720, 0x0001 Bytes, ...) -- Read from C cache (1 bytes @ 0x20007720) - Data: 28  returns 0x00 (0000ms, 0452ms total)
T07C0 011:527 JLINK_ReadMem (0x20007721, 0x0001 Bytes, ...) -- Read from C cache (1 bytes @ 0x20007721) - Data: 29  returns 0x00 (0000ms, 0452ms total)
T07C0 011:527 JLINK_ReadMem (0x20007722, 0x0001 Bytes, ...) -- Read from C cache (1 bytes @ 0x20007722) - Data: 2A  returns 0x00 (0000ms, 0452ms total)
T07C0 011:527 JLINK_ReadMem (0x20007723, 0x0001 Bytes, ...) -- Read from C cache (1 bytes @ 0x20007723) - Data: 2B  returns 0x00 (0000ms, 0452ms total)
T07C0 011:527 JLINK_ReadMem (0x20007724, 0x0001 Bytes, ...) -- Read from C cache (1 bytes @ 0x20007724) - Data: 2C  returns 0x00 (0000ms, 0452ms total)
T07C0 011:527 JLINK_ReadMem (0x20007725, 0x0001 Bytes, ...) -- Read from C cache (1 bytes @ 0x20007725) - Data: 2D  returns 0x00 (0000ms, 0452ms total)
T07C0 011:527 JLINK_ReadMem (0x20007726, 0x0001 Bytes, ...) -- Read from C cache (1 bytes @ 0x20007726) - Data: 2E  returns 0x00 (0000ms, 0452ms total)
T07C0 011:527 JLINK_ReadMem (0x20007727, 0x0001 Bytes, ...) -- Read from C cache (1 bytes @ 0x20007727) - Data: 2F  returns 0x00 (0001ms, 0453ms total)
T07C0 011:528 JLINK_ReadMem (0x20007728, 0x0001 Bytes, ...) -- Read from C cache (1 bytes @ 0x20007728) - Data: 30  returns 0x00 (0000ms, 0453ms total)
T07C0 011:528 JLINK_ReadMem (0x20007729, 0x0001 Bytes, ...) -- Read from C cache (1 bytes @ 0x20007729) - Data: 31  returns 0x00 (0000ms, 0453ms total)
T07C0 019:491 JLINK_ReadMem (0x20000004, 0x0004 Bytes, ...) -- CPU_ReadMem(64 bytes @ 0x20000000) -- Updating C cache (64 bytes @ 0x20000000) -- Read from C cache (4 bytes @ 0x20000004) - Data: 00 00 00 00  returns 0x00 (0001ms, 0454ms total)
T0CB4 030:885 JLINK_Step() -- Read from C cache (2 bytes @ 0x08000290) -- CPU_ReadMem(4 bytes @ 0xE000ED18) -- CPU_WriteMem(4 bytes @ 0xE000ED18) -- CPU_ReadMem(4 bytes @ 0xE000ED18) -- CPU_WriteMem(4 bytes @ 0xE000ED18) -- CPU_ReadMem(64 bytes @ 0x08000300) -- Updating C cache (64 bytes @ 0x08000300) -- Read from C cache (4 bytes @ 0x08000304) -- Simulated  returns 0x00 (0005ms, 0459ms total)
T0CB4 030:890 JLINK_ReadReg(R15 (PC))  returns 0x08000292 (0000ms, 0459ms total)
T0CB4 030:890 JLINK_ReadReg(XPSR)  returns 0x61000000 (0000ms, 0459ms total)
T0CB4 030:890 JLINK_Step() -- Read from C cache (2 bytes @ 0x08000292) -- CPU_ReadMem(64 bytes @ 0x200006C0) -- Updating C cache (64 bytes @ 0x200006C0) -- Read from C cache (4 bytes @ 0x200006E4) -- Simulated  returns 0x00 (0001ms, 0460ms total)
T0CB4 030:892 JLINK_ReadReg(R15 (PC))  returns 0x08000294 (0000ms, 0460ms total)
T0CB4 030:892 JLINK_ReadReg(XPSR)  returns 0x61000000 (0000ms, 0460ms total)
T0CB4 030:894 JLINK_Step() -- Read from C cache (2 bytes @ 0x08000294) -- Read from C cache (2 bytes @ 0x08000296) -- Simulated  returns 0x00 (0000ms, 0460ms total)
T0CB4 030:894 JLINK_ReadReg(R15 (PC))  returns 0x08005B24 (0000ms, 0460ms total)
T0CB4 030:894 JLINK_ReadReg(XPSR)  returns 0x61000000 (0000ms, 0460ms total)
T0CB4 030:895 JLINK_ReadReg(R0)  returns 0x200006D8 (0000ms, 0460ms total)
T0CB4 030:895 JLINK_ReadReg(R1)  returns 0x00000000 (0000ms, 0460ms total)
T0CB4 030:895 JLINK_ReadReg(R2)  returns 0x00000001 (0000ms, 0460ms total)
T0CB4 030:895 JLINK_ReadReg(R3)  returns 0x00000000 (0000ms, 0460ms total)
T0CB4 030:895 JLINK_ReadReg(R4)  returns 0x000000BC (0000ms, 0460ms total)
T0CB4 030:895 JLINK_ReadReg(R5)  returns 0x2000715C (0000ms, 0460ms total)
T0CB4 030:895 JLINK_ReadReg(R6)  returns 0x00000000 (0000ms, 0460ms total)
T0CB4 030:895 JLINK_ReadReg(R7)  returns 0x00000000 (0000ms, 0460ms total)
T0CB4 030:895 JLINK_ReadReg(R8)  returns 0x00000000 (0000ms, 0460ms total)
T0CB4 030:895 JLINK_ReadReg(R9)  returns 0x00000000 (0000ms, 0460ms total)
T0CB4 030:895 JLINK_ReadReg(R10)  returns 0x08032578 (0000ms, 0460ms total)
T0CB4 030:895 JLINK_ReadReg(R11)  returns 0x00000000 (0000ms, 0460ms total)
T0CB4 030:895 JLINK_ReadReg(R12)  returns 0x00000001 (0000ms, 0460ms total)
T0CB4 030:895 JLINK_ReadReg(R13 (SP))  returns 0x200076E0 (0000ms, 0460ms total)
T0CB4 030:895 JLINK_ReadReg(R14)  returns 0x08000299 (0000ms, 0460ms total)
T0CB4 030:895 JLINK_ReadReg(R15 (PC))  returns 0x08005B24 (0000ms, 0460ms total)
T0CB4 030:895 JLINK_ReadReg(XPSR)  returns 0x61000000 (0000ms, 0460ms total)
T0CB4 030:895 JLINK_ReadReg(MSP)  returns 0x200076E0 (0000ms, 0460ms total)
T0CB4 030:895 JLINK_ReadReg(PSP)  returns 0x00000000 (0000ms, 0460ms total)
T0CB4 030:895 JLINK_ReadReg(CFBP)  returns 0x04000000 (0000ms, 0460ms total)
T0CB4 030:895 JLINK_ReadReg(FPSCR)  returns 0x03000000 (0000ms, 0460ms total)
T0CB4 030:895 JLINK_ReadReg(FPS0)  returns 0x00000000 (0000ms, 0460ms total)
T0CB4 030:895 JLINK_ReadReg(FPS1)  returns 0x00000000 (0001ms, 0461ms total)
T0CB4 030:896 JLINK_ReadReg(FPS2)  returns 0x00000000 (0000ms, 0461ms total)
T0CB4 030:896 JLINK_ReadReg(FPS3)  returns 0x00000000 (0000ms, 0461ms total)
T0CB4 030:896 JLINK_ReadReg(FPS4)  returns 0x00000000 (0000ms, 0461ms total)
T0CB4 030:896 JLINK_ReadReg(FPS5)  returns 0x00000000 (0000ms, 0461ms total)
T0CB4 030:896 JLINK_ReadReg(FPS6)  returns 0x00000000 (0000ms, 0461ms total)
T0CB4 030:896 JLINK_ReadReg(FPS7)  returns 0x00000000 (0000ms, 0461ms total)
T0CB4 030:896 JLINK_ReadReg(FPS8)  returns 0x00000000 (0000ms, 0461ms total)
T0CB4 030:896 JLINK_ReadReg(FPS9)  returns 0x00000000 (0000ms, 0461ms total)
T0CB4 030:896 JLINK_ReadReg(FPS10)  returns 0x00000000 (0000ms, 0461ms total)
T0CB4 030:896 JLINK_ReadReg(FPS11)  returns 0x00000000 (0000ms, 0461ms total)
T0CB4 030:896 JLINK_ReadReg(FPS12)  returns 0x00000000 (0000ms, 0461ms total)
T0CB4 030:896 JLINK_ReadReg(FPS13)  returns 0x00000000 (0000ms, 0461ms total)
T0CB4 030:896 JLINK_ReadReg(FPS14)  returns 0x00000000 (0000ms, 0461ms total)
T0CB4 030:896 JLINK_ReadReg(FPS15)  returns 0x00000000 (0000ms, 0461ms total)
T0CB4 030:896 JLINK_ReadReg(FPS16)  returns 0x00000000 (0000ms, 0461ms total)
T0CB4 030:896 JLINK_ReadReg(FPS17)  returns 0x00000000 (0000ms, 0461ms total)
T0CB4 030:896 JLINK_ReadReg(FPS18)  returns 0x00000000 (0000ms, 0461ms total)
T0CB4 030:896 JLINK_ReadReg(FPS19)  returns 0x00000000 (0000ms, 0461ms total)
T0CB4 030:896 JLINK_ReadReg(FPS20)  returns 0x00000000 (0000ms, 0461ms total)
T0CB4 030:896 JLINK_ReadReg(FPS21)  returns 0x00000000 (0000ms, 0461ms total)
T0CB4 030:896 JLINK_ReadReg(FPS22)  returns 0x00000000 (0000ms, 0461ms total)
T0CB4 030:896 JLINK_ReadReg(FPS23)  returns 0x00000000 (0000ms, 0461ms total)
T0CB4 030:896 JLINK_ReadReg(FPS24)  returns 0x00000000 (0000ms, 0461ms total)
T0CB4 030:896 JLINK_ReadReg(FPS25)  returns 0x00000000 (0000ms, 0461ms total)
T0CB4 030:896 JLINK_ReadReg(FPS26)  returns 0x00000000 (0001ms, 0462ms total)
T0CB4 030:897 JLINK_ReadReg(FPS27)  returns 0x00000000 (0000ms, 0462ms total)
T0CB4 030:897 JLINK_ReadReg(FPS28)  returns 0x00000000 (0000ms, 0462ms total)
T0CB4 030:897 JLINK_ReadReg(FPS29)  returns 0x00000000 (0000ms, 0462ms total)
T0CB4 030:897 JLINK_ReadReg(FPS30)  returns 0x00000000 (0000ms, 0462ms total)
T0CB4 030:897 JLINK_ReadReg(FPS31)  returns 0x00000000 (0000ms, 0462ms total)
T07C0 030:898 JLINK_ReadMem (0x00000000, 0x0001 Bytes, ...) -- Read from C cache (1 bytes @ 0x08000000) - Data: C0  returns 0x00 (0000ms, 0462ms total)
T07C0 030:898 JLINK_ReadMem (0x00000000, 0x0004 Bytes, ...) -- Read from C cache (4 bytes @ 0x08000000) - Data: C0 77 00 20  returns 0x00 (0000ms, 0462ms total)
T07C0 030:908 JLINK_ReadMem (0x200076F8, 0x0020 Bytes, ...) -- Read from C cache (32 bytes @ 0x200076F8) - Data: 00 01 02 03 04 05 06 07 08 09 0A 0B 0C 0D 0E 0F ...  returns 0x00 (0000ms, 0462ms total)
T07C0 030:908 JLINK_ReadMem (0x200076E4, 0x0014 Bytes, ...) -- Read from C cache (20 bytes @ 0x200076E4) - Data: 00 00 00 00 00 00 00 00 00 00 00 00 00 00 00 00 ...  returns 0x00 (0000ms, 0462ms total)
T07C0 030:908 JLINK_ReadMemU32(0xE0001004, 0x0001 Items, ...) - Data: 4B D3 31 00  returns 0x01 (0000ms, 0462ms total)
T0CB4 032:030 JLINK_ReadMem (0x08005B24, 0x003C Bytes, ...) -- CPU_ReadMem(128 bytes @ 0x08005B00) -- Updating C cache (128 bytes @ 0x08005B00) -- Read from C cache (60 bytes @ 0x08005B24) - Data: 2D E9 FE 4F 04 46 0D 46 20 46 FF F7 B4 FC 02 90 ...  returns 0x00 (0001ms, 0463ms total)
T0CB4 032:031 JLINK_Step() -- Read from C cache (2 bytes @ 0x08005B24) -- Read from C cache (2 bytes @ 0x08005B26) -- Not simulated -- CPU_WriteMem(4 bytes @ 0xE0002008) -- CPU_WriteMem(4 bytes @ 0xE0001004)  returns 0x00 (0007ms, 0470ms total)
T0CB4 032:038 JLINK_ReadReg(R15 (PC))  returns 0x08005B28 (0000ms, 0470ms total)
T0CB4 032:038 JLINK_ReadReg(XPSR)  returns 0x61000000 (0000ms, 0470ms total)
T0CB4 032:038 JLINK_Step() -- CPU_ReadMem(64 bytes @ 0x08005B00) -- Updating C cache (64 bytes @ 0x08005B00) -- Read from C cache (2 bytes @ 0x08005B28) -- CPU_ReadMem(4 bytes @ 0xE0001004) -- Simulated  returns 0x00 (0003ms, 0473ms total)
T0CB4 032:041 JLINK_ReadReg(R15 (PC))  returns 0x08005B2A (0000ms, 0473ms total)
T0CB4 032:041 JLINK_ReadReg(XPSR)  returns 0x61000000 (0000ms, 0473ms total)
T0CB4 032:041 JLINK_Step() -- Read from C cache (2 bytes @ 0x08005B2A) -- Simulated  returns 0x00 (0000ms, 0473ms total)
T0CB4 032:041 JLINK_ReadReg(R15 (PC))  returns 0x08005B2C (0000ms, 0473ms total)
T0CB4 032:041 JLINK_ReadReg(XPSR)  returns 0x61000000 (0000ms, 0473ms total)
T0CB4 032:041 JLINK_ReadReg(R0)  returns 0x200006D8 (0000ms, 0473ms total)
T0CB4 032:041 JLINK_ReadReg(R1)  returns 0x00000000 (0000ms, 0473ms total)
T0CB4 032:041 JLINK_ReadReg(R2)  returns 0x00000001 (0000ms, 0473ms total)
T0CB4 032:041 JLINK_ReadReg(R3)  returns 0x00000000 (0001ms, 0474ms total)
T0CB4 032:042 JLINK_ReadReg(R4)  returns 0x200006D8 (0000ms, 0474ms total)
T0CB4 032:042 JLINK_ReadReg(R5)  returns 0x00000000 (0000ms, 0474ms total)
T0CB4 032:042 JLINK_ReadReg(R6)  returns 0x00000000 (0000ms, 0474ms total)
T0CB4 032:042 JLINK_ReadReg(R7)  returns 0x00000000 (0000ms, 0474ms total)
T0CB4 032:042 JLINK_ReadReg(R8)  returns 0x00000000 (0000ms, 0474ms total)
T0CB4 032:042 JLINK_ReadReg(R9)  returns 0x00000000 (0000ms, 0474ms total)
T0CB4 032:042 JLINK_ReadReg(R10)  returns 0x08032578 (0000ms, 0474ms total)
T0CB4 032:042 JLINK_ReadReg(R11)  returns 0x00000000 (0000ms, 0474ms total)
T0CB4 032:042 JLINK_ReadReg(R12)  returns 0x00000001 (0000ms, 0474ms total)
T0CB4 032:042 JLINK_ReadReg(R13 (SP))  returns 0x200076B0 (0000ms, 0474ms total)
T0CB4 032:042 JLINK_ReadReg(R14)  returns 0x08000299 (0000ms, 0474ms total)
T0CB4 032:042 JLINK_ReadReg(R15 (PC))  returns 0x08005B2C (0000ms, 0474ms total)
T0CB4 032:042 JLINK_ReadReg(XPSR)  returns 0x61000000 (0000ms, 0474ms total)
T0CB4 032:042 JLINK_ReadReg(MSP)  returns 0x200076B0 (0000ms, 0474ms total)
T0CB4 032:042 JLINK_ReadReg(PSP)  returns 0x00000000 (0000ms, 0474ms total)
T0CB4 032:042 JLINK_ReadReg(CFBP)  returns 0x04000000 (0000ms, 0474ms total)
T0CB4 032:042 JLINK_ReadReg(FPSCR)  returns 0x03000000 (0004ms, 0478ms total)
T0CB4 032:046 JLINK_ReadReg(FPS0)  returns 0x00000000 (0000ms, 0478ms total)
T0CB4 032:046 JLINK_ReadReg(FPS1)  returns 0x00000000 (0000ms, 0478ms total)
T0CB4 032:047 JLINK_ReadReg(FPS2)  returns 0x00000000 (0000ms, 0479ms total)
T0CB4 032:047 JLINK_ReadReg(FPS3)  returns 0x00000000 (0000ms, 0479ms total)
T0CB4 032:047 JLINK_ReadReg(FPS4)  returns 0x00000000 (0000ms, 0479ms total)
T0CB4 032:047 JLINK_ReadReg(FPS5)  returns 0x00000000 (0000ms, 0479ms total)
T0CB4 032:047 JLINK_ReadReg(FPS6)  returns 0x00000000 (0000ms, 0479ms total)
T0CB4 032:047 JLINK_ReadReg(FPS7)  returns 0x00000000 (0000ms, 0479ms total)
T0CB4 032:047 JLINK_ReadReg(FPS8)  returns 0x00000000 (0000ms, 0479ms total)
T0CB4 032:047 JLINK_ReadReg(FPS9)  returns 0x00000000 (0000ms, 0479ms total)
T0CB4 032:047 JLINK_ReadReg(FPS10)  returns 0x00000000 (0000ms, 0479ms total)
T0CB4 032:047 JLINK_ReadReg(FPS11)  returns 0x00000000 (0000ms, 0479ms total)
T0CB4 032:047 JLINK_ReadReg(FPS12)  returns 0x00000000 (0000ms, 0479ms total)
T0CB4 032:047 JLINK_ReadReg(FPS13)  returns 0x00000000 (0000ms, 0479ms total)
T0CB4 032:047 JLINK_ReadReg(FPS14)  returns 0x00000000 (0000ms, 0479ms total)
T0CB4 032:047 JLINK_ReadReg(FPS15)  returns 0x00000000 (0000ms, 0479ms total)
T0CB4 032:047 JLINK_ReadReg(FPS16)  returns 0x00000000 (0000ms, 0479ms total)
T0CB4 032:047 JLINK_ReadReg(FPS17)  returns 0x00000000 (0000ms, 0479ms total)
T0CB4 032:047 JLINK_ReadReg(FPS18)  returns 0x00000000 (0000ms, 0479ms total)
T0CB4 032:047 JLINK_ReadReg(FPS19)  returns 0x00000000 (0000ms, 0479ms total)
T0CB4 032:047 JLINK_ReadReg(FPS20)  returns 0x00000000 (0000ms, 0479ms total)
T0CB4 032:047 JLINK_ReadReg(FPS21)  returns 0x00000000 (0000ms, 0479ms total)
T0CB4 032:047 JLINK_ReadReg(FPS22)  returns 0x00000000 (0000ms, 0479ms total)
T0CB4 032:047 JLINK_ReadReg(FPS23)  returns 0x00000000 (0000ms, 0479ms total)
T0CB4 032:048 JLINK_ReadReg(FPS24)  returns 0x00000000 (0000ms, 0480ms total)
T0CB4 032:048 JLINK_ReadReg(FPS25)  returns 0x00000000 (0000ms, 0480ms total)
T0CB4 032:048 JLINK_ReadReg(FPS26)  returns 0x00000000 (0000ms, 0480ms total)
T0CB4 032:048 JLINK_ReadReg(FPS27)  returns 0x00000000 (0000ms, 0480ms total)
T0CB4 032:048 JLINK_ReadReg(FPS28)  returns 0x00000000 (0000ms, 0480ms total)
T0CB4 032:048 JLINK_ReadReg(FPS29)  returns 0x00000000 (0000ms, 0480ms total)
T0CB4 032:048 JLINK_ReadReg(FPS30)  returns 0x00000000 (0000ms, 0480ms total)
T0CB4 032:048 JLINK_ReadReg(FPS31)  returns 0x00000000 (0000ms, 0480ms total)
T07C0 032:048 JLINK_ReadMem (0x200076DC, 0x0004 Bytes, ...) -- CPU_ReadMem(64 bytes @ 0x200076C0) -- Updating C cache (64 bytes @ 0x200076C0) -- Read from C cache (4 bytes @ 0x200076DC) - Data: 99 02 00 08  returns 0x00 (0001ms, 0481ms total)
T07C0 032:049 JLINK_ReadMem (0x200076BC, 0x0004 Bytes, ...) -- CPU_ReadMem(64 bytes @ 0x20007680) -- Updating C cache (64 bytes @ 0x20007680) -- Read from C cache (4 bytes @ 0x200076BC) - Data: BC 00 00 00  returns 0x00 (0002ms, 0483ms total)
T07C0 032:051 JLINK_ReadMem (0x200076C0, 0x0004 Bytes, ...) -- Read from C cache (4 bytes @ 0x200076C0) - Data: 5C 71 00 20  returns 0x00 (0000ms, 0483ms total)
T07C0 032:051 JLINK_ReadMem (0x200076C4, 0x0004 Bytes, ...) -- Read from C cache (4 bytes @ 0x200076C4) - Data: 00 00 00 00  returns 0x00 (0000ms, 0483ms total)
T07C0 032:051 JLINK_ReadMem (0x200076C8, 0x0004 Bytes, ...) -- Read from C cache (4 bytes @ 0x200076C8) - Data: 00 00 00 00  returns 0x00 (0000ms, 0483ms total)
T07C0 032:051 JLINK_ReadMem (0x200076CC, 0x0004 Bytes, ...) -- Read from C cache (4 bytes @ 0x200076CC) - Data: 00 00 00 00  returns 0x00 (0000ms, 0483ms total)
T07C0 032:051 JLINK_ReadMem (0x200076D0, 0x0004 Bytes, ...) -- Read from C cache (4 bytes @ 0x200076D0) - Data: 00 00 00 00  returns 0x00 (0000ms, 0483ms total)
T07C0 032:051 JLINK_ReadMem (0x200076D4, 0x0004 Bytes, ...) -- Read from C cache (4 bytes @ 0x200076D4) - Data: 78 25 03 08  returns 0x00 (0000ms, 0483ms total)
T07C0 032:051 JLINK_ReadMem (0x200076D8, 0x0004 Bytes, ...) -- Read from C cache (4 bytes @ 0x200076D8) - Data: 00 00 00 00  returns 0x00 (0000ms, 0483ms total)
T07C0 032:051 JLINK_ReadMem (0x00000000, 0x0001 Bytes, ...) -- CPU_ReadMem(4 bytes @ 0x00000004) -- CPU_ReadMem(64 bytes @ 0x08000000) -- Updating C cache (64 bytes @ 0x08000000) -- Read from C cache (1 bytes @ 0x08000000) - Data: C0  returns 0x00 (0002ms, 0485ms total)
T07C0 032:053 JLINK_ReadMem (0x00000000, 0x0004 Bytes, ...) -- Read from C cache (4 bytes @ 0x08000000) - Data: C0 77 00 20  returns 0x00 (0000ms, 0485ms total)
T07C0 032:053 JLINK_ReadMem (0x200076F8, 0x0020 Bytes, ...) -- CPU_ReadMem(64 bytes @ 0x20007700) -- Updating C cache (64 bytes @ 0x20007700) -- Read from C cache (32 bytes @ 0x200076F8) - Data: 00 01 02 03 04 05 06 07 08 09 0A 0B 0C 0D 0E 0F ...  returns 0x00 (0001ms, 0486ms total)
T07C0 032:054 JLINK_ReadMem (0x200076E4, 0x0014 Bytes, ...) -- Read from C cache (20 bytes @ 0x200076E4) - Data: 00 00 00 00 00 00 00 00 00 00 00 00 00 00 00 00 ...  returns 0x00 (0001ms, 0487ms total)
T07C0 032:055 JLINK_ReadMemU32(0xE0001004, 0x0001 Items, ...) - Data: 5A D3 31 00  returns 0x01 (0000ms, 0487ms total)
T07C0 032:057 JLINK_ReadMem (0x08005B2C, 0x003C Bytes, ...) -- CPU_ReadMem(64 bytes @ 0x08005B40) -- Updating C cache (64 bytes @ 0x08005B40) -- Read from C cache (60 bytes @ 0x08005B2C) - Data: 20 46 FF F7 B4 FC 02 90 02 98 10 B1 02 98 BD E8 ...  returns 0x00 (0001ms, 0488ms total)
T0CB4 045:584 JLINK_Step() -- Read from C cache (2 bytes @ 0x08005B2C) -- Simulated  returns 0x00 (0001ms, 0489ms total)
T0CB4 045:585 JLINK_ReadReg(R15 (PC))  returns 0x08005B2E (0000ms, 0489ms total)
T0CB4 045:585 JLINK_ReadReg(XPSR)  returns 0x61000000 (0000ms, 0489ms total)
T0CB4 045:585 JLINK_Step() -- Read from C cache (2 bytes @ 0x08005B2E) -- Read from C cache (2 bytes @ 0x08005B30) -- Simulated  returns 0x00 (0000ms, 0489ms total)
T0CB4 045:585 JLINK_ReadReg(R15 (PC))  returns 0x0800549A (0000ms, 0489ms total)
T0CB4 045:585 JLINK_ReadReg(XPSR)  returns 0x61000000 (0000ms, 0489ms total)
T0CB4 045:585 JLINK_ReadReg(R0)  returns 0x200006D8 (0000ms, 0489ms total)
T0CB4 045:585 JLINK_ReadReg(R1)  returns 0x00000000 (0000ms, 0489ms total)
T0CB4 045:585 JLINK_ReadReg(R2)  returns 0x00000001 (0000ms, 0489ms total)
T0CB4 045:585 JLINK_ReadReg(R3)  returns 0x00000000 (0000ms, 0489ms total)
T0CB4 045:585 JLINK_ReadReg(R4)  returns 0x200006D8 (0000ms, 0489ms total)
T0CB4 045:585 JLINK_ReadReg(R5)  returns 0x00000000 (0000ms, 0489ms total)
T0CB4 045:585 JLINK_ReadReg(R6)  returns 0x00000000 (0000ms, 0489ms total)
T0CB4 045:586 JLINK_ReadReg(R7)  returns 0x00000000 (0000ms, 0489ms total)
T0CB4 045:586 JLINK_ReadReg(R8)  returns 0x00000000 (0000ms, 0489ms total)
T0CB4 045:586 JLINK_ReadReg(R9)  returns 0x00000000 (0000ms, 0489ms total)
T0CB4 045:586 JLINK_ReadReg(R10)  returns 0x08032578 (0000ms, 0489ms total)
T0CB4 045:586 JLINK_ReadReg(R11)  returns 0x00000000 (0000ms, 0489ms total)
T0CB4 045:586 JLINK_ReadReg(R12)  returns 0x00000001 (0000ms, 0489ms total)
T0CB4 045:586 JLINK_ReadReg(R13 (SP))  returns 0x200076B0 (0000ms, 0489ms total)
T0CB4 045:586 JLINK_ReadReg(R14)  returns 0x08005B33 (0000ms, 0489ms total)
T0CB4 045:586 JLINK_ReadReg(R15 (PC))  returns 0x0800549A (0000ms, 0489ms total)
T0CB4 045:586 JLINK_ReadReg(XPSR)  returns 0x61000000 (0000ms, 0489ms total)
T0CB4 045:586 JLINK_ReadReg(MSP)  returns 0x200076B0 (0000ms, 0489ms total)
T0CB4 045:586 JLINK_ReadReg(PSP)  returns 0x00000000 (0000ms, 0489ms total)
T0CB4 045:586 JLINK_ReadReg(CFBP)  returns 0x04000000 (0000ms, 0489ms total)
T0CB4 045:586 JLINK_ReadReg(FPSCR)  returns 0x03000000 (0000ms, 0489ms total)
T0CB4 045:586 JLINK_ReadReg(FPS0)  returns 0x00000000 (0000ms, 0489ms total)
T0CB4 045:586 JLINK_ReadReg(FPS1)  returns 0x00000000 (0000ms, 0489ms total)
T0CB4 045:586 JLINK_ReadReg(FPS2)  returns 0x00000000 (0000ms, 0489ms total)
T0CB4 045:586 JLINK_ReadReg(FPS3)  returns 0x00000000 (0000ms, 0489ms total)
T0CB4 045:586 JLINK_ReadReg(FPS4)  returns 0x00000000 (0000ms, 0489ms total)
T0CB4 045:586 JLINK_ReadReg(FPS5)  returns 0x00000000 (0000ms, 0489ms total)
T0CB4 045:586 JLINK_ReadReg(FPS6)  returns 0x00000000 (0000ms, 0489ms total)
T0CB4 045:586 JLINK_ReadReg(FPS7)  returns 0x00000000 (0000ms, 0489ms total)
T0CB4 045:586 JLINK_ReadReg(FPS8)  returns 0x00000000 (0000ms, 0489ms total)
T0CB4 045:586 JLINK_ReadReg(FPS9)  returns 0x00000000 (0000ms, 0489ms total)
T0CB4 045:586 JLINK_ReadReg(FPS10)  returns 0x00000000 (0001ms, 0490ms total)
T0CB4 045:587 JLINK_ReadReg(FPS11)  returns 0x00000000 (0000ms, 0490ms total)
T0CB4 045:587 JLINK_ReadReg(FPS12)  returns 0x00000000 (0000ms, 0490ms total)
T0CB4 045:587 JLINK_ReadReg(FPS13)  returns 0x00000000 (0000ms, 0490ms total)
T0CB4 045:587 JLINK_ReadReg(FPS14)  returns 0x00000000 (0000ms, 0490ms total)
T0CB4 045:587 JLINK_ReadReg(FPS15)  returns 0x00000000 (0000ms, 0490ms total)
T0CB4 045:587 JLINK_ReadReg(FPS16)  returns 0x00000000 (0000ms, 0490ms total)
T0CB4 045:587 JLINK_ReadReg(FPS17)  returns 0x00000000 (0000ms, 0490ms total)
T0CB4 045:587 JLINK_ReadReg(FPS18)  returns 0x00000000 (0000ms, 0490ms total)
T0CB4 045:587 JLINK_ReadReg(FPS19)  returns 0x00000000 (0000ms, 0490ms total)
T0CB4 045:587 JLINK_ReadReg(FPS20)  returns 0x00000000 (0000ms, 0490ms total)
T0CB4 045:587 JLINK_ReadReg(FPS21)  returns 0x00000000 (0000ms, 0490ms total)
T0CB4 045:587 JLINK_ReadReg(FPS22)  returns 0x00000000 (0000ms, 0490ms total)
T0CB4 045:587 JLINK_ReadReg(FPS23)  returns 0x00000000 (0000ms, 0490ms total)
T0CB4 045:587 JLINK_ReadReg(FPS24)  returns 0x00000000 (0000ms, 0490ms total)
T0CB4 045:587 JLINK_ReadReg(FPS25)  returns 0x00000000 (0000ms, 0490ms total)
T0CB4 045:587 JLINK_ReadReg(FPS26)  returns 0x00000000 (0000ms, 0490ms total)
T0CB4 045:587 JLINK_ReadReg(FPS27)  returns 0x00000000 (0000ms, 0490ms total)
T0CB4 045:587 JLINK_ReadReg(FPS28)  returns 0x00000000 (0000ms, 0490ms total)
T0CB4 045:587 JLINK_ReadReg(FPS29)  returns 0x00000000 (0000ms, 0490ms total)
T0CB4 045:587 JLINK_ReadReg(FPS30)  returns 0x00000000 (0000ms, 0490ms total)
T0CB4 045:587 JLINK_ReadReg(FPS31)  returns 0x00000000 (0000ms, 0490ms total)
T07C0 045:588 JLINK_ReadMem (0x200076DC, 0x0004 Bytes, ...) -- Read from C cache (4 bytes @ 0x200076DC) - Data: 99 02 00 08  returns 0x00 (0000ms, 0490ms total)
T07C0 045:589 JLINK_ReadMem (0x200076BC, 0x0004 Bytes, ...) -- Read from C cache (4 bytes @ 0x200076BC) - Data: BC 00 00 00  returns 0x00 (0000ms, 0491ms total)
T07C0 045:589 JLINK_ReadMem (0x200076C0, 0x0004 Bytes, ...) -- Read from C cache (4 bytes @ 0x200076C0) - Data: 5C 71 00 20  returns 0x00 (0000ms, 0491ms total)
T07C0 045:589 JLINK_ReadMem (0x200076C4, 0x0004 Bytes, ...) -- Read from C cache (4 bytes @ 0x200076C4) - Data: 00 00 00 00  returns 0x00 (0000ms, 0491ms total)
T07C0 045:589 JLINK_ReadMem (0x200076C8, 0x0004 Bytes, ...) -- Read from C cache (4 bytes @ 0x200076C8) - Data: 00 00 00 00  returns 0x00 (0000ms, 0491ms total)
T07C0 045:589 JLINK_ReadMem (0x200076CC, 0x0004 Bytes, ...) -- Read from C cache (4 bytes @ 0x200076CC) - Data: 00 00 00 00  returns 0x00 (0000ms, 0491ms total)
T07C0 045:589 JLINK_ReadMem (0x200076D0, 0x0004 Bytes, ...) -- Read from C cache (4 bytes @ 0x200076D0) - Data: 00 00 00 00  returns 0x00 (0000ms, 0491ms total)
T07C0 045:589 JLINK_ReadMem (0x200076D4, 0x0004 Bytes, ...) -- Read from C cache (4 bytes @ 0x200076D4) - Data: 78 25 03 08  returns 0x00 (0000ms, 0491ms total)
T07C0 045:589 JLINK_ReadMem (0x200076D8, 0x0004 Bytes, ...) -- Read from C cache (4 bytes @ 0x200076D8) - Data: 00 00 00 00  returns 0x00 (0000ms, 0491ms total)
T07C0 045:589 JLINK_ReadMem (0x00000000, 0x0004 Bytes, ...) -- Read from C cache (4 bytes @ 0x08000000) - Data: C0 77 00 20  returns 0x00 (0000ms, 0491ms total)
T07C0 045:599 JLINK_ReadMem (0x200076F8, 0x0020 Bytes, ...) -- Read from C cache (32 bytes @ 0x200076F8) - Data: 00 01 02 03 04 05 06 07 08 09 0A 0B 0C 0D 0E 0F ...  returns 0x00 (0000ms, 0491ms total)
T07C0 045:599 JLINK_ReadMem (0x200076E4, 0x0014 Bytes, ...) -- Read from C cache (20 bytes @ 0x200076E4) - Data: 00 00 00 00 00 00 00 00 00 00 00 00 00 00 00 00 ...  returns 0x00 (0000ms, 0491ms total)
T07C0 045:599 JLINK_ReadMemU32(0xE0001004, 0x0001 Items, ...) - Data: 5C D3 31 00  returns 0x01 (0000ms, 0491ms total)
T07C0 045:601 JLINK_ReadMem (0x0800549A, 0x0002 Bytes, ...) -- CPU_ReadMem(64 bytes @ 0x08005480) -- Updating C cache (64 bytes @ 0x08005480) -- Read from C cache (2 bytes @ 0x0800549A) - Data: 70 B5  returns 0x00 (0001ms, 0492ms total)
T07C0 045:602 JLINK_ReadMem (0x0800549C, 0x003C Bytes, ...) -- CPU_ReadMem(64 bytes @ 0x080054C0) -- Updating C cache (64 bytes @ 0x080054C0) -- Read from C cache (60 bytes @ 0x0800549C) - Data: 05 46 2C 46 4C B1 20 68 38 B1 20 68 00 78 20 B1 ...  returns 0x00 (0001ms, 0493ms total)
T0CB4 046:449 JLINK_Step() -- Read from C cache (2 bytes @ 0x0800549A) -- CPU_WriteMem(16 bytes @ 0x200076A0) -- Simulated  returns 0x00 (0002ms, 0495ms total)
T0CB4 046:451 JLINK_ReadReg(R15 (PC))  returns 0x0800549C (0000ms, 0495ms total)
T0CB4 046:451 JLINK_ReadReg(XPSR)  returns 0x61000000 (0000ms, 0495ms total)
T0CB4 046:451 JLINK_Step() -- Read from C cache (2 bytes @ 0x0800549C) -- Simulated  returns 0x00 (0000ms, 0495ms total)
T0CB4 046:451 JLINK_ReadReg(R15 (PC))  returns 0x0800549E (0000ms, 0495ms total)
T0CB4 046:451 JLINK_ReadReg(XPSR)  returns 0x61000000 (0000ms, 0495ms total)
T0CB4 046:452 JLINK_ReadReg(R0)  returns 0x200006D8 (0000ms, 0495ms total)
T0CB4 046:452 JLINK_ReadReg(R1)  returns 0x00000000 (0000ms, 0495ms total)
